!    4/18/2025   7:07:30 PM 
! Ref Plane: 0.000 mm
# MHZ S MA R  50
!
500.0000      0.96411       -75.93         
501.3750      0.96396       -76.19         
502.7500      0.96353       -76.41         
504.1250      0.96308       -76.65         
505.5000      0.96257       -76.87         
506.8750      0.96227       -77.11         
508.2500      0.96204       -77.34         
509.6250      0.96179       -77.57         
511.0000      0.96147       -77.81         
512.3750      0.96106       -78.05         
513.7500      0.96063       -78.29         
515.1250      0.96024       -78.52         
516.5000      0.95992       -78.76         
517.8750      0.95949       -79.00         
519.2500      0.95895       -79.25         
520.6250      0.95848       -79.49         
522.0000      0.95789       -79.73         
523.3750      0.95737       -79.97         
524.7500      0.95693       -80.22         
526.1250      0.95628       -80.47         
527.5000      0.95571       -80.72         
528.8750      0.95495       -80.96         
530.2500      0.95423       -81.21         
531.6250      0.95362       -81.44         
533.0000      0.95304       -81.67         
534.3750      0.95251       -81.91         
535.7500      0.95202       -82.14         
537.1250      0.95178       -82.36         
538.5000      0.9514        -82.61         
539.8750      0.95126       -82.84         
541.2500      0.95101       -83.08         
542.6250      0.95075       -83.33         
544.0000      0.95056       -83.59         
545.3750      0.9504        -83.83         
546.7500      0.94993       -84.09         
548.1250      0.94962       -84.33         
549.5000      0.94931       -84.58         
550.8750      0.94892       -84.82         
552.2500      0.9486        -85.07         
553.6250      0.94826       -85.30         
555.0000      0.94785       -85.55         
556.3750      0.94751       -85.79         
557.7500      0.94722       -86.02         
559.1250      0.9469        -86.27         
560.5000      0.94662       -86.52         
561.8750      0.94618       -86.77         
563.2500      0.94578       -87.01         
564.6250      0.94512       -87.25         
566.0000      0.94453       -87.49         
567.3750      0.94405       -87.72         
568.7500      0.94364       -87.95         
570.1250      0.9432        -88.19         
571.5000      0.94252       -88.42         
572.8750      0.94208       -88.64         
574.2500      0.94144       -88.88         
575.6250      0.94084       -89.11         
577.0000      0.94016       -89.33         
578.3750      0.93959       -89.56         
579.7500      0.93913       -89.78         
581.1250      0.9386        -90.01         
582.5000      0.93813       -90.24         
583.8750      0.93769       -90.47         
585.2500      0.93705       -90.71         
586.6250      0.93633       -90.96         
588.0000      0.93561       -91.19         
589.3750      0.93506       -91.43         
590.7500      0.93431       -91.68         
592.1250      0.93364       -91.93         
593.5000      0.93265       -92.19         
594.8750      0.93168       -92.43         
596.2500      0.93082       -92.71         
597.6250      0.92991       -92.97         
599.0000      0.92876       -93.23         
600.3750      0.92766       -93.50         
601.7500      0.92644       -93.75         
603.1250      0.9252        -94.00         
604.5000      0.92399       -94.28         
605.8750      0.92283       -94.54         
607.2500      0.92156       -94.81         
608.6250      0.92012       -95.07         
610.0000      0.919         -95.34         
611.3750      0.91755       -95.61         
612.7500      0.91632       -95.86         
614.1250      0.91486       -96.12         
615.5000      0.91342       -96.36         
616.8750      0.9122        -96.62         
618.2500      0.91073       -96.86         
619.6250      0.90953       -97.12         
621.0000      0.90834       -97.37         
622.3750      0.90699       -97.62         
623.7500      0.90587       -97.87         
625.1250      0.90451       -98.12         
626.5000      0.90304       -98.38         
627.8750      0.90171       -98.61         
629.2500      0.90053       -98.86         
630.6250      0.89913       -99.12         
632.0000      0.89772       -99.36         
633.3750      0.89612       -99.60         
634.7500      0.89469       -99.83         
636.1250      0.89326       -100.07        
637.5000      0.89191       -100.30        
638.8750      0.89026       -100.53        
640.2500      0.88889       -100.76        
641.6250      0.88738       -100.98        
643.0000      0.88603       -101.20        
644.3750      0.88484       -101.41        
645.7500      0.88371       -101.64        
647.1250      0.88259       -101.86        
648.5000      0.8816        -102.10        
649.8750      0.88046       -102.34        
651.2500      0.87936       -102.58        
652.6250      0.87795       -102.81        
654.0000      0.87674       -103.04        
655.3750      0.87567       -103.27        
656.7500      0.87478       -103.50        
658.1250      0.87394       -103.75        
659.5000      0.87289       -104.00        
660.8750      0.8716        -104.27        
662.2500      0.87037       -104.53        
663.6250      0.86891       -104.79        
665.0000      0.86746       -105.04        
666.3750      0.86577       -105.29        
667.7500      0.86407       -105.53        
669.1250      0.86241       -105.75        
670.5000      0.86092       -105.99        
671.8750      0.85986       -106.19        
673.2500      0.8588        -106.45        
674.6250      0.85781       -106.70        
676.0000      0.85638       -106.99        
677.3750      0.85454       -107.28        
678.7500      0.85263       -107.53        
680.1250      0.85041       -107.76        
681.5000      0.84845       -107.98        
682.8750      0.84642       -108.20        
684.2500      0.84483       -108.41        
685.6250      0.84333       -108.60        
687.0000      0.84201       -108.78        
688.3750      0.84046       -108.98        
689.7500      0.83929       -109.17        
691.1250      0.83824       -109.37        
692.5000      0.83729       -109.56        
693.8750      0.83623       -109.76        
695.2500      0.83557       -109.96        
696.6250      0.83478       -110.19        
698.0000      0.83396       -110.41        
699.3750      0.83286       -110.63        
700.7500      0.83177       -110.86        
702.1250      0.83029       -111.10        
703.5000      0.82862       -111.34        
704.8750      0.82672       -111.56        
706.2500      0.82452       -111.76        
707.6250      0.82284       -111.92        
709.0000      0.82114       -112.09        
710.3750      0.81951       -112.22        
711.7500      0.81807       -112.38        
713.1250      0.81671       -112.51        
714.5000      0.81567       -112.66        
715.8750      0.81458       -112.81        
717.2500      0.81372       -112.98        
718.6250      0.81278       -113.14        
720.0000      0.81169       -113.31        
721.3750      0.81099       -113.47        
722.7500      0.81017       -113.63        
724.1250      0.80962       -113.81        
725.5000      0.80904       -114.01        
726.8750      0.80825       -114.21        
728.2500      0.8073        -114.40        
729.6250      0.80647       -114.60        
731.0000      0.80564       -114.80        
732.3750      0.80493       -114.99        
733.7500      0.80414       -115.21        
735.1250      0.8035        -115.41        
736.5000      0.80283       -115.61        
737.8750      0.80199       -115.82        
739.2500      0.80143       -116.04        
740.6250      0.80062       -116.24        
742.0000      0.80008       -116.46        
743.3750      0.79926       -116.68        
744.7500      0.79858       -116.88        
746.1250      0.79817       -117.10        
747.5000      0.79774       -117.33        
748.8750      0.79728       -117.55        
750.2500      0.79745       -117.78        
751.6250      0.79724       -118.03        
753.0000      0.79747       -118.30        
754.3750      0.79713       -118.59        
755.7500      0.79713       -118.90        
757.1250      0.79664       -119.20        
758.5000      0.79624       -119.51        
759.8750      0.79541       -119.82        
761.2500      0.79479       -120.11        
762.6250      0.79398       -120.41        
764.0000      0.79352       -120.69        
765.3750      0.7932        -121.01        
766.7500      0.79274       -121.34        
768.1250      0.79211       -121.69        
769.5000      0.79146       -122.03        
770.8750      0.791         -122.37        
772.2500      0.78992       -122.73        
773.6250      0.78883       -123.08        
775.0000      0.78768       -123.44        
776.3750      0.78671       -123.78        
777.7500      0.78549       -124.14        
779.1250      0.78438       -124.51        
780.5000      0.78296       -124.89        
781.8750      0.78131       -125.27        
783.2500      0.77969       -125.67        
784.6250      0.77785       -126.01        
786.0000      0.77598       -126.36        
787.3750      0.77435       -126.70        
788.7500      0.77286       -127.04        
790.1250      0.77149       -127.41        
791.5000      0.76995       -127.77        
792.8750      0.76846       -128.15        
794.2500      0.76668       -128.55        
795.6250      0.76487       -128.92        
797.0000      0.76327       -129.37        
798.3750      0.76132       -129.79        
799.7500      0.75924       -130.21        
801.1250      0.75679       -130.63        
802.5000      0.7542        -131.06        
803.8750      0.75145       -131.48        
805.2500      0.74858       -131.92        
806.6250      0.74566       -132.35        
808.0000      0.74237       -132.76        
809.3750      0.73943       -133.18        
810.7500      0.73627       -133.60        
812.1250      0.73298       -134.01        
813.5000      0.72958       -134.43        
814.8750      0.72616       -134.82        
816.2500      0.72287       -135.23        
817.6250      0.71949       -135.64        
819.0000      0.71632       -136.06        
820.3750      0.71284       -136.49        
821.7500      0.70919       -136.92        
823.1250      0.70527       -137.36        
824.5000      0.70143       -137.75        
825.8750      0.69764       -138.19        
827.2500      0.6936        -138.58        
828.6250      0.68968       -138.97        
830.0000      0.68592       -139.38        
831.3750      0.68199       -139.81        
832.7500      0.67802       -140.26        
834.1250      0.67349       -140.70        
835.5000      0.66895       -141.13        
836.8750      0.66414       -141.55        
838.2500      0.6594        -141.96        
839.6250      0.65426       -142.40        
841.0000      0.64909       -142.81        
842.3750      0.64382       -143.21        
843.7500      0.63793       -143.61        
845.1250      0.63212       -143.97        
846.5000      0.62648       -144.27        
847.8750      0.62132       -144.60        
849.2500      0.61634       -144.93        
850.6250      0.61104       -145.29        
852.0000      0.60565       -145.66        
853.3750      0.60002       -146.01        
854.7500      0.59407       -146.36        
856.1250      0.58834       -146.71        
857.5000      0.5824        -147.02        
858.8750      0.57655       -147.35        
860.2500      0.57064       -147.67        
861.6250      0.56471       -147.98        
863.0000      0.55874       -148.32        
864.3750      0.55232       -148.67        
865.7500      0.54563       -148.99        
867.1250      0.53873       -149.27        
868.5000      0.53216       -149.53        
869.8750      0.52565       -149.80        
871.2500      0.5192        -150.06        
872.6250      0.51263       -150.36        
874.0000      0.50566       -150.64        
875.3750      0.49868       -150.93        
876.7500      0.49145       -151.19        
878.1250      0.48398       -151.46        
879.5000      0.47632       -151.67        
880.8750      0.46846       -151.86        
882.2500      0.46081       -151.97        
883.6250      0.45336       -152.09        
885.0000      0.44626       -152.21        
886.3750      0.43944       -152.36        
887.7500      0.43228       -152.55        
889.1250      0.42468       -152.77        
890.5000      0.41667       -152.98        
891.8750      0.40834       -153.15        
893.2500      0.39956       -153.28        
894.6250      0.39064       -153.34        
896.0000      0.38162       -153.36        
897.3750      0.37239       -153.31        
898.7500      0.36336       -153.17        
900.1250      0.35452       -153.00        
901.5000      0.34564       -152.81        
902.8750      0.3364        -152.60        
904.2500      0.32707       -152.28        
905.6250      0.31772       -151.89        
907.0000      0.3086        -151.43        
908.3750      0.29903       -150.90        
909.7500      0.28922       -150.26        
911.1250      0.27943       -149.41        
912.5000      0.26976       -148.33        
913.8750      0.26054       -147.06        
915.2500      0.25168       -145.68        
916.6250      0.243         -144.08        
918.0000      0.23468       -142.20        
919.3750      0.22685       -139.99        
920.7500      0.22015       -137.46        
922.1250      0.2147        -134.77        
923.5000      0.21056       -131.88        
924.8750      0.20777       -128.90        
926.2500      0.20588       -125.97        
927.6250      0.20461       -123.10        
929.0000      0.20404       -120.21        
930.3750      0.20395       -117.24        
931.7500      0.20492       -114.23        
933.1250      0.20688       -111.28        
934.5000      0.2095        -108.45        
935.8750      0.21291       -105.68        
937.2500      0.21729       -102.97        
938.6250      0.22251       -100.43        
940.0000      0.22867       -98.00         
941.3750      0.23529       -95.77         
942.7500      0.24287       -93.67         
944.1250      0.25118       -91.80         
945.5000      0.26003       -90.15         
946.8750      0.2694        -88.68         
948.2500      0.27901       -87.37         
949.6250      0.2889        -86.19         
951.0000      0.29914       -85.13         
952.3750      0.30978       -84.16         
953.7500      0.32117       -83.28         
955.1250      0.33314       -82.56         
956.5000      0.34566       -82.01         
957.8750      0.35835       -81.63         
959.2500      0.3711        -81.37         
960.6250      0.38392       -81.25         
962.0000      0.39659       -81.24         
963.3750      0.40906       -81.31         
964.7500      0.4211        -81.43         
966.1250      0.43315       -81.60         
967.5000      0.44495       -81.79         
968.8750      0.45653       -82.03         
970.2500      0.46785       -82.27         
971.6250      0.47907       -82.51         
973.0000      0.49059       -82.77         
974.3750      0.50224       -83.04         
975.7500      0.51407       -83.34         
977.1250      0.52593       -83.70         
978.5000      0.53777       -84.10         
979.8750      0.54962       -84.54         
981.2500      0.56139       -85.00         
982.6250      0.57315       -85.52         
984.0000      0.58474       -86.06         
985.3750      0.59597       -86.64         
986.7500      0.60709       -87.22         
988.1250      0.61809       -87.85         
989.5000      0.62888       -88.51         
990.8750      0.63908       -89.18         
992.2500      0.64893       -89.86         
993.6250      0.65851       -90.54         
995.0000      0.66774       -91.23         
996.3750      0.67651       -91.91         
997.7500      0.68516       -92.58         
999.1250      0.69358       -93.26         
1000.5000     0.7019        -93.92         
1001.8750     0.70985       -94.61         
1003.2500     0.71764       -95.28         
1004.6250     0.72523       -95.95         
1006.0000     0.73243       -96.62         
1007.3750     0.73956       -97.28         
1008.7500     0.7462        -97.95         
1010.1250     0.75279       -98.59         
1011.5000     0.7594        -99.23         
1012.8750     0.76562       -99.89         
1014.2500     0.7716        -100.52        
1015.6250     0.77761       -101.17        
1017.0000     0.78306       -101.81        
1018.3750     0.78862       -102.45        
1019.7500     0.79379       -103.08        
1021.1250     0.79877       -103.70        
1022.5000     0.80349       -104.33        
1023.8750     0.80803       -104.93        
1025.2500     0.81251       -105.54        
1026.6250     0.8167        -106.15        
1028.0000     0.82092       -106.75        
1029.3750     0.82474       -107.36        
1030.7500     0.82867       -107.95        
1032.1250     0.83239       -108.53        
1033.5000     0.83577       -109.12        
1034.8750     0.83909       -109.70        
1036.2500     0.84244       -110.26        
1037.6250     0.84544       -110.83        
1039.0000     0.84835       -111.39        
1040.3750     0.85114       -111.94        
1041.7500     0.85389       -112.49        
1043.1250     0.85631       -113.01        
1044.5000     0.85885       -113.54        
1045.8750     0.86132       -114.06        
1047.2500     0.86358       -114.56        
1048.6250     0.86605       -115.06        
1050.0000     0.86842       -115.55        
1051.3750     0.87091       -116.04        
1052.7500     0.8733        -116.53        
1054.1250     0.8756        -117.03        
1055.5000     0.87797       -117.51        
1056.8750     0.8803        -118.00        
1058.2500     0.88234       -118.48        
1059.6250     0.88432       -118.97        
1061.0000     0.88626       -119.44        
1062.3750     0.888         -119.91        
1063.7500     0.88981       -120.37        
1065.1250     0.89159       -120.84        
1066.5000     0.89333       -121.29        
1067.8750     0.89499       -121.75        
1069.2500     0.89674       -122.19        
1070.6250     0.89838       -122.63        
1072.0000     0.89998       -123.08        
1073.3750     0.90154       -123.52        
1074.7500     0.90302       -123.96        
1076.1250     0.90456       -124.39        
1077.5000     0.9058        -124.81        
1078.8750     0.90717       -125.23        
1080.2500     0.90857       -125.66        
1081.6250     0.90983       -126.07        
1083.0000     0.91108       -126.48        
1084.3750     0.91222       -126.90        
1085.7500     0.91323       -127.31        
1087.1250     0.91439       -127.71        
1088.5000     0.91553       -128.12        
1089.8750     0.9166        -128.51        
1091.2500     0.91747       -128.91        
1092.6250     0.91853       -129.31        
1094.0000     0.91945       -129.71        
1095.3750     0.92042       -130.10        
1096.7500     0.92131       -130.48        
1098.1250     0.92227       -130.88        
1099.5000     0.9231        -131.27        
1100.8750     0.92392       -131.65        
1102.2500     0.9247        -132.04        
1103.6250     0.92566       -132.42        
1105.0000     0.92631       -132.80        
1106.3750     0.92718       -133.18        
1107.7500     0.9281        -133.55        
1109.1250     0.92855       -133.91        
1110.5000     0.92955       -134.29        
1111.8750     0.93021       -134.66        
1113.2500     0.93084       -135.01        
1114.6250     0.9316        -135.37        
1116.0000     0.93228       -135.73        
1117.3750     0.93299       -136.10        
1118.7500     0.93372       -136.45        
1120.1250     0.9344        -136.81        
